! Touchstone file from project ms_2d_fr4
! Exported from 2D Extractor 2015.0.0
! Variables:
!  t = 35um
!  w = 1mm
!  x_sub = 30mm
!  z_sub = 1.6mm
# GHZ S MA R 50.000000
! Terminal data exported
! Port[1] = signal_A
! Port[2] = signal_B
0.1              0.010282736947842 88.615763762695  0.999731518175651 -1.22678071273363 0.999731518175651 -1.22678071273363 0.010282736947842 88.615763762695  
! Gamma         0                0                0                0                0                0                0                0                
! Port Impedance50               0                0                0                0                0                50               0                

3.445            0.316107650651706 50.3127361318211 0.94436946460005 -40.1552442006532 0.94436946460005 -40.1552442006532 0.316107650651706 50.3127361318211 
! Gamma         0                0                0                0                0                0                0                0                
! Port Impedance50               0                0                0                0                0                50               0                

6.79             0.47074995457251 17.08064947092   0.872205342881386 -73.6384924889754 0.872205342881386 -73.6384924889754 0.47074995457251 17.08064947092   
! Gamma         0                0                0                0                0                0                0                0                
! Port Impedance50               0                0                0                0                0                50               0                

10.135           0.475081987050227 -12.996112131418 0.862535117410951 -104.20272930177 0.862535117410951 -104.20272930177 0.475081987050227 -12.996112131418 
! Gamma         0                0                0                0                0                0                0                0                
! Port Impedance50               0                0                0                0                0                50               0                

13.48            0.334262161429816 -44.4794080566552 0.917606768559713 -136.911602469383 0.917606768559713 -136.911602469383 0.334262161429816 -44.4794080566552 
! Gamma         0                0                0                0                0                0                0                0                
! Port Impedance50               0                0                0                0                0                50               0                

16.825           0.0474689494951512 -65.8015194067534 0.968850587106146 -174.697447659104 0.968850587106146 -174.697447659104 0.0474689494951512 -65.8015194067534 
! Gamma         0                0                0                0                0                0                0                0                
! Port Impedance50               0                0                0                0                0                50               0                

20.17            0.269212075521264 54.3043347878706 0.93119162725329 146.468018614664 0.93119162725329 146.468018614664 0.269212075521264 54.3043347878706 
! Gamma         0                0                0                0                0                0                0                0                
! Port Impedance50               0                0                0                0                0                50               0                

23.515           0.44905459796577 22.284702135527  0.859267866517983 112.349308033597 0.859267866517983 112.349308033597 0.44905459796577 22.284702135527  
! Gamma         0                0                0                0                0                0                0                0                
! Port Impedance50               0                0                0                0                0                50               0                

26.86            0.479194980780232 -7.01244172038475 0.83793449502038 81.7232545880285 0.83793449502038 81.7232545880285 0.479194980780232 -7.01244172038475 
! Gamma         0                0                0                0                0                0                0                0                
! Port Impedance50               0                0                0                0                0                50               0                

30.205           0.369719643927719 -36.8047112815285 0.88151024212469 49.8835016191264 0.88151024212469 49.8835016191264 0.369719643927719 -36.8047112815285 
! Gamma         0                0                0                0                0                0                0                0                
! Port Impedance50               0                0                0                0                0                50               0                

33.55            0.113686265629695 -62.6897952445766 0.939297248314978 13.2741687260906 0.939297248314978 13.2741687260906 0.113686265629695 -62.6897952445766 
! Gamma         0                0                0                0                0                0                0                0                
! Port Impedance50               0                0                0                0                0                50               0                

36.895           0.20961611741384 58.0847570698448 0.922249935923295 -25.6654579920403 0.922249935923295 -25.6654579920403 0.20961611741384 58.0847570698448 
! Gamma         0                0                0                0                0                0                0                0                
! Port Impedance50               0                0                0                0                0                50               0                

40.24            0.418450394827325 28.010329166197  0.853229356329258 -60.7676618771048 0.853229356329258 -60.7676618771048 0.418450394827325 28.010329166197  
! Gamma         0                0                0                0                0                0                0                0                
! Port Impedance50               0                0                0                0                0                50               0                

43.585           0.477866837223016 -0.851096747273085 0.820243508960244 -91.7961671657919 0.820243508960244 -91.7961671657919 0.477866837223016 -0.851096747273085 
! Gamma         0                0                0                0                0                0                0                0                
! Port Impedance50               0                0                0                0                0                50               0                

46.93            0.400499040479042 -29.5011842341635 0.85073019226874 -123.003554765996 0.85073019226874 -123.003554765996 0.400499040479042 -29.5011842341635 
! Gamma         0                0                0                0                0                0                0                0                
! Port Impedance50               0                0                0                0                0                50               0                

50.275           0.178406653882274 -56.7042813142355 0.910517173028373 -158.412886399784 0.910517173028373 -158.412886399784 0.178406653882274 -56.7042813142355 
! Gamma         0                0                0                0                0                0                0                0                
! Port Impedance50               0                0                0                0                0                50               0                

53.62            0.144909187896258 59.0713531639854 0.913959381731324 162.800522388608 0.913959381731324 162.800522388608 0.144909187896258 59.0713531639854 
! Gamma         0                0                0                0                0                0                0                0                
! Port Impedance50               0                0                0                0                0                50               0                

56.965           0.380629572791455 33.8835757708855 0.851775513347509 126.677008494776 0.851775513347509 126.677008494776 0.380629572791455 33.8835757708855 
! Gamma         0                0                0                0                0                0                0                0                
! Port Impedance50               0                0                0                0                0                50               0                

60.31            0.470961410977214 5.33525208980746 0.808631356261032 95.0108933486015 0.808631356261032 95.0108933486015 0.470961410977214 5.33525208980746 
! Gamma         0                0                0                0                0                0                0                0                
! Port Impedance50               0                0                0                0                0                50               0                

63.655           0.425236571851776 -22.5431306020382 0.825418043435169 64.200391150635  0.825418043435169 64.200391150635  0.425236571851776 -22.5431306020382 
! Gamma         0                0                0                0                0                0                0                0                
! Port Impedance50               0                0                0                0                0                50               0                

67               0.23829345840962 -50.0710382327015 0.882879487642229 29.9514541437336 0.882879487642229 29.9514541437336 0.23829345840962 -50.0710382327015 
! Gamma         0                0                0                0                0                0                0                0                
! Port Impedance50               0                0                0                0                0                50               0                

