! Touchstone file from project stripline_2d
! Exported from 2D Extractor 2015.0.0
! Variables:
!  t = 35um
!  w = 0.3mm
!  x_sub = 3mm
!  z_sub = 200um
# GHZ S MA R 50.000000
! Terminal data exported
! Port[1] = signal_A
! Port[2] = signal_B
0.1              0.0731023620672724 -102.849773044676 0.990816062444841 -13.294458082682 0.990816062444841 -13.294458082682 0.0731023620672724 -102.849773044676 
! Gamma         0                0                0                0                0                0                0                0                
! Port Impedance50               0                0                0                0                0                50               0                

3.445            0.246038569167738 -153.048231127724 0.870936085625204 -58.1911722138648 0.870936085625204 -58.1911722138648 0.246038569167738 -153.048231127724 
! Gamma         0                0                0                0                0                0                0                0                
! Port Impedance50               0                0                0                0                0                50               0                

6.79             0.265726452859657 172.850078209652 0.797616327800364 -97.2148596741824 0.797616327800364 -97.2148596741824 0.265726452859657 172.850078209652 
! Gamma         0                0                0                0                0                0                0                0                
! Port Impedance50               0                0                0                0                0                50               0                

10.135           0.182269021063945 148.033308935259 0.75287707389608 -135.497665058465 0.75287707389608 -135.497665058465 0.182269021063945 148.033308935259 
! Gamma         0                0                0                0                0                0                0                0                
! Port Impedance50               0                0                0                0                0                50               0                

13.48            0.0816266923429871 167.070931421551 0.70843268765326 -174.082433111664 0.70843268765326 -174.082433111664 0.0816266923429871 167.070931421551 
! Gamma         0                0                0                0                0                0                0                0                
! Port Impedance50               0                0                0                0                0                50               0                

16.825           0.141684168405599 -155.39226024148 0.655429199489261 148.125376788767 0.655429199489261 148.125376788767 0.141684168405599 -155.39226024148 
! Gamma         0                0                0                0                0                0                0                0                
! Port Impedance50               0                0                0                0                0                50               0                

20.17            0.205642884972297 -169.73440074236 0.60585735322464 111.839665083683 0.60585735322464 111.839665083683 0.205642884972297 -169.73440074236 
! Gamma         0                0                0                0                0                0                0                0                
! Port Impedance50               0                0                0                0                0                50               0                

23.515           0.205923618228099 171.795831864503 0.568204002578   76.4197384378944 0.568204002578   76.4197384378944 0.205923618228099 171.795831864503 
! Gamma         0                0                0                0                0                0                0                0                
! Port Impedance50               0                0                0                0                0                50               0                

26.86            0.157397422010668 161.462972682942 0.538935183638809 40.9469963938047 0.538935183638809 40.9469963938047 0.157397422010668 161.462972682942 
! Gamma         0                0                0                0                0                0                0                0                
! Port Impedance50               0                0                0                0                0                50               0                

30.205           0.116364375889282 174.863436330204 0.510377500291428 5.25591371528433 0.510377500291428 5.25591371528433 0.116364375889282 174.863436330204 
! Gamma         0                0                0                0                0                0                0                0                
! Port Impedance50               0                0                0                0                0                50               0                

33.55            0.142033727480258 -168.404800012644 0.480019208272247 -30.1293551043767 0.480019208272247 -30.1293551043767 0.142033727480258 -168.404800012644 
! Gamma         0                0                0                0                0                0                0                0                
! Port Impedance50               0                0                0                0                0                50               0                

36.895           0.179258748753992 -173.304492331173 0.451340656989637 -64.837655305601 0.451340656989637 -64.837655305601 0.179258748753992 -173.304492331173 
! Gamma         0                0                0                0                0                0                0                0                
! Port Impedance50               0                0                0                0                0                50               0                

40.24            0.184502385081119 175.709896181465 0.427527019125799 -99.0874537039995 0.427527019125799 -99.0874537039995 0.184502385081119 175.709896181465 
! Gamma         0                0                0                0                0                0                0                0                
! Port Impedance50               0                0                0                0                0                50               0                

43.585           0.159765725713458 169.017709977723 0.407882284012523 -133.323246120437 0.407882284012523 -133.323246120437 0.159765725713458 169.017709977723 
! Gamma         0                0                0                0                0                0                0                0                
! Port Impedance50               0                0                0                0                0                50               0                

46.93            0.134302489921196 174.336680251674 0.389545553263477 -167.69930710303 0.389545553263477 -167.69930710303 0.134302489921196 174.336680251674 
! Gamma         0                0                0                0                0                0                0                0                
! Port Impedance50               0                0                0                0                0                50               0                

50.275           0.140776318406692 -175.185941969792 0.370925170541572 158.010948634621 0.370925170541572 158.010948634621 0.140776318406692 -175.185941969792 
! Gamma         0                0                0                0                0                0                0                0                
! Port Impedance50               0                0                0                0                0                50               0                

53.62            0.163984231963049 -174.903169041128 0.352916670767268 124.062089005247 0.352916670767268 124.062089005247 0.163984231963049 -174.903169041128 
! Gamma         0                0                0                0                0                0                0                0                
! Port Impedance50               0                0                0                0                0                50               0                

56.965           0.173545876073442 178.726877356766 0.337066503848547 90.4243357658575 0.337066503848547 90.4243357658575 0.173545876073442 178.726877356766 
! Gamma         0                0                0                0                0                0                0                0                
! Port Impedance50               0                0                0                0                0                50               0                

60.31            0.162622194576704 173.26503358105  0.323593215733611 56.8597071527453 0.323593215733611 56.8597071527453 0.162622194576704 173.26503358105  
! Gamma         0                0                0                0                0                0                0                0                
! Port Impedance50               0                0                0                0                0                50               0                

63.655           0.144898864957871 174.275552923919 0.311383587967099 23.2096733221503 0.311383587967099 23.2096733221503 0.144898864957871 174.275552923919 
! Gamma         0                0                0                0                0                0                0                0                
! Port Impedance50               0                0                0                0                0                50               0                

67               0.141799490297945 -179.261522605564 0.299367430475773 -10.4551495477521 0.299367430475773 -10.4551495477521 0.141799490297945 -179.261522605564 
! Gamma         0                0                0                0                0                0                0                0                
! Port Impedance50               0                0                0                0                0                50               0                

