! Touchstone file from project stripline_2d_diff_lossless_fsweep
! Variables:
!  s = 100um
!  t = 35um
!  w = 0.15mm
!  x_sub = 3mm
!  z_sub = 200um
# GHZ S MA R 50.000000
! Terminal data exported
! Port[1] = signal_A
! Port[2] = signal1_A
! Port[3] = signal_B
! Port[4] = signal1_B
1                0.0312861341939557 163.465876154214 0.199007760573183 -30.8202632101558 0.95918483517582 -122.014722107065 0.0114123568368458 -113.103378995562 
                0.199007760573183 -30.8202632101558 0.0312861861119952 163.4658834926   0.0114123568368458 -113.103378995563 0.959184803599109 -122.01471445354 
                0.95918483517582 -122.014722107065 0.0114123568368458 -113.103378995562 0.0312861341939557 163.465876154214 0.199007760573183 -30.8202632101558 
                0.0114123568368458 -113.103378995563 0.959184803599109 -122.01471445354 0.199007760573183 -30.8202632101558 0.0312861861119952 163.4658834926   
! Gamma         0                0                0                0                0                0                0                0                
!               0                0                0                0                0                0                0                0                
!               0                0                0                0                0                0                0                0                
!               0                0                0                0                0                0                0                0                
! Port Impedance50               0                0                0                0                0                0                0                
!               0                0                50               0                0                0                0                0                
!               0                0                0                0                50               0                0                0                
!               0                0                0                0                0                0                50               0                

2.95             0.00391062006768599 -143.419014075634 0.00905960574683599 19.2329415393301 0.965004141646292 -0.673261290304765 0.0105683002049665 44.2690988280858 
                0.00905960574683596 19.2329415393304 0.00391060611236142 -143.419001390391 0.010568300204967 44.2690988280878 0.965004468314831 -0.67325369232373 
                0.965004141646292 -0.673261290304765 0.0105683002049665 44.2690988280858 0.00391062006768599 -143.419014075634 0.00905960574683599 19.2329415393301 
                0.010568300204967 44.2690988280878 0.965004468314831 -0.67325369232373 0.00905960574683596 19.2329415393304 0.00391060611236142 -143.419001390391 
! Gamma         0                0                0                0                0                0                0                0                
!               0                0                0                0                0                0                0                0                
!               0                0                0                0                0                0                0                0                
!               0                0                0                0                0                0                0                0                
! Port Impedance50               0                0                0                0                0                0                0                
!               0                0                50               0                0                0                0                0                
!               0                0                0                0                50               0                0                0                
!               0                0                0                0                0                0                50               0                

4.9              0.0349737101729499 -151.152814122718 0.197685252408483 29.4100085402251 0.935822681239862 120.976367888443 0.020613234878577 161.423202085389 
                0.197685252408483 29.4100085402251 0.0349737265047902 -151.153045574408 0.0206132348785782 161.423202085392 0.935824631937659 120.976318064074 
                0.935822681239862 120.976367888443 0.020613234878577 161.423202085389 0.0349737101729499 -151.152814122718 0.197685252408483 29.4100085402251 
                0.0206132348785782 161.423202085392 0.935824631937659 120.976318064074 0.197685252408483 29.4100085402251 0.0349737265047902 -151.153045574408 
! Gamma         0                0                0                0                0                0                0                0                
!               0                0                0                0                0                0                0                0                
!               0                0                0                0                0                0                0                0                
!               0                0                0                0                0                0                0                0                
! Port Impedance50               0                0                0                0                0                0                0                
!               0                0                50               0                0                0                0                0                
!               0                0                0                0                50               0                0                0                
!               0                0                0                0                0                0                50               0                

6.85             0.0343893294847106 160.654705943451 0.206533556577744 -23.6387278338276 0.926121638025287 -115.249421201429 0.0196522757965874 -92.5494295510521 
                0.206533556577744 -23.6387278338276 0.0343891492820935 160.654163180338 0.0196522757965869 -92.5494295510523 0.926124462713175 -115.249620150513 
                0.926121638025287 -115.249421201429 0.0196522757965874 -92.5494295510521 0.0343893294847106 160.654705943451 0.206533556577744 -23.6387278338276 
                0.0196522757965869 -92.5494295510523 0.926124462713175 -115.249620150513 0.206533556577744 -23.6387278338276 0.0343891492820935 160.654163180338 
! Gamma         0                0                0                0                0                0                0                0                
!               0                0                0                0                0                0                0                0                
!               0                0                0                0                0                0                0                0                
!               0                0                0                0                0                0                0                0                
! Port Impedance50               0                0                0                0                0                0                0                
!               0                0                50               0                0                0                0                0                
!               0                0                0                0                50               0                0                0                
!               0                0                0                0                0                0                50               0                

8.8              0.00573023814519055 167.961949410237 0.0301591464422157 -54.6684048713452 0.939816877164912 6.83360343612088 0.0171381662962694 48.4055080952739 
                0.0301591464422157 -54.6684048713452 0.00572998303367118 167.963920073109 0.0171381662962692 48.4055080952732 0.939819626846635 6.83322060249834 
                0.939816877164912 6.83360343612088 0.0171381662962694 48.4055080952739 0.00573023814519055 167.961949410237 0.0301591464422157 -54.6684048713452 
                0.0171381662962692 48.4055080952732 0.939819626846635 6.83322060249834 0.0301591464422157 -54.6684048713452 0.00572998303367118 167.963920073109 
! Gamma         0                0                0                0                0                0                0                0                
!               0                0                0                0                0                0                0                0                
!               0                0                0                0                0                0                0                0                
!               0                0                0                0                0                0                0                0                
! Port Impedance50               0                0                0                0                0                0                0                
!               0                0                50               0                0                0                0                0                
!               0                0                0                0                50               0                0                0                
!               0                0                0                0                0                0                50               0                

10.75            0.0329845091149119 -149.731488918201 0.1774369870285  35.2227142902851 0.918922466044207 128.469050316565 0.0256711559970464 171.056614391116 
                0.1774369870285  35.2227142902851 0.0329845137223283 -149.731996191373 0.0256711559970458 171.056614391114 0.918924312716005 128.468477703804 
                0.918922466044207 128.469050316565 0.0256711559970464 171.056614391116 0.0329845091149119 -149.731488918201 0.1774369870285  35.2227142902851 
                0.0256711559970458 171.056614391114 0.918924312716005 128.468477703804 0.1774369870285  35.2227142902851 0.0329845137223283 -149.731996191373 
! Gamma         0                0                0                0                0                0                0                0                
!               0                0                0                0                0                0                0                0                
!               0                0                0                0                0                0                0                0                
!               0                0                0                0                0                0                0                0                
! Port Impedance50               0                0                0                0                0                0                0                
!               0                0                50               0                0                0                0                0                
!               0                0                0                0                50               0                0                0                
!               0                0                0                0                0                0                50               0                

12.7             0.0355260323455924 165.040978222231 0.213712317364556 -16.3417485939067 0.90662901508856 -107.748371526633 0.0249905065173511 -79.518089907562 
                0.213712317364555 -16.3417485939067 0.0355254468412609 165.040250279464 0.0249905065173488 -79.5180899075671 0.906629546602669 -107.749133805279 
                0.90662901508856 -107.748371526633 0.0249905065173511 -79.518089907562 0.0355260323455924 165.040978222231 0.213712317364556 -16.3417485939067 
                0.0249905065173488 -79.5180899075671 0.906629546602669 -107.749133805279 0.213712317364555 -16.3417485939067 0.0355254468412609 165.040250279464 
! Gamma         0                0                0                0                0                0                0                0                
!               0                0                0                0                0                0                0                0                
!               0                0                0                0                0                0                0                0                
!               0                0                0                0                0                0                0                0                
! Port Impedance50               0                0                0                0                0                0                0                
!               0                0                50               0                0                0                0                0                
!               0                0                0                0                50               0                0                0                
!               0                0                0                0                0                0                50               0                

14.65            0.00919402181664829 149.288697497725 0.0591548152187061 -57.7282451706878 0.921839931713095 14.7782304796544 0.021485945671334 54.3773431179172 
                0.0591548152187061 -57.7282451706878 0.00919342560078063 149.291352445343 0.0214859456713337 54.3773431179158 0.921838770306421 14.7772815385738 
                0.921839931713095 14.7782304796544 0.021485945671334 54.3773431179172 0.00919402181664829 149.288697497725 0.0591548152187061 -57.7282451706878 
                0.0214859456713337 54.3773431179158 0.921838770306421 14.7772815385738 0.0591548152187061 -57.7282451706878 0.00919342560078063 149.291352445343 
! Gamma         0                0                0                0                0                0                0                0                
!               0                0                0                0                0                0                0                0                
!               0                0                0                0                0                0                0                0                
!               0                0                0                0                0                0                0                0                
! Port Impedance50               0                0                0                0                0                0                0                
!               0                0                50               0                0                0                0                0                
!               0                0                0                0                50               0                0                0                
!               0                0                0                0                0                0                50               0                

16.6             0.0302759531988321 -146.895458018085 0.154853014409059 40.9824309569424 0.907273145919498 136.318535221861 0.0290584071014368 -179.529530442772 
                0.154853014409059 40.9824309569424 0.0302761136179233 -146.896349093488 0.0290584071014352 -179.529530442774 0.907270049341897 136.317408223835 
                0.907273145919498 136.318535221861 0.0290584071014368 -179.529530442772 0.0302759531988321 -146.895458018085 0.154853014409059 40.9824309569424 
                0.0290584071014352 -179.529530442774 0.907270049341897 136.317408223835 0.154853014409059 40.9824309569424 0.0302761136179233 -146.896349093488 
! Gamma         0                0                0                0                0                0                0                0                
!               0                0                0                0                0                0                0                0                
!               0                0                0                0                0                0                0                0                
!               0                0                0                0                0                0                0                0                
! Port Impedance50               0                0                0                0                0                0                0                
!               0                0                50               0                0                0                0                0                
!               0                0                0                0                50               0                0                0                
!               0                0                0                0                0                0                50               0                

18.55            0.0363083003601789 169.799836880869 0.217951082156831 -9.14665399303533 0.891737049576664 -100.028787875545 0.0292710103523708 -68.3054066356192 
                0.217951082156831 -9.14665399303529 0.0363074226491305 169.798913502856 0.0292710103523689 -68.3054066356257 0.891731884213597 -100.030086726647 
                0.891737049576664 -100.028787875545 0.0292710103523708 -68.3054066356192 0.0363083003601789 169.799836880869 0.217951082156831 -9.14665399303533 
                0.0292710103523689 -68.3054066356257 0.891731884213597 -100.030086726647 0.217951082156831 -9.14665399303529 0.0363074226491305 169.798913502856 
! Gamma         0                0                0                0                0                0                0                0                
!               0                0                0                0                0                0                0                0                
!               0                0                0                0                0                0                0                0                
!               0                0                0                0                0                0                0                0                
! Port Impedance50               0                0                0                0                0                0                0                
!               0                0                50               0                0                0                0                0                
!               0                0                0                0                50               0                0                0                
!               0                0                0                0                0                0                50               0                

20.5             0.013089676443744 144.104601638926 0.0874276146756739 -54.057398588121 0.906431932854728 22.8854419243848 0.0251023065367352 61.0644256149078 
                0.0874276146756737 -54.0573985881212 0.0130886915158538 144.107266431174 0.0251023065367311 61.0644256149282 0.906424249798664 22.883980137282  
                0.906431932854728 22.8854419243848 0.0251023065367352 61.0644256149078 0.013089676443744 144.104601638926 0.0874276146756739 -54.057398588121 
                0.0251023065367311 61.0644256149282 0.906424249798664 22.883980137282  0.0874276146756737 -54.0573985881212 0.0130886915158538 144.107266431174 
! Gamma         0                0                0                0                0                0                0                0                
!               0                0                0                0                0                0                0                0                
