! Touchstone file from project stripline_2d_diff
! Variables:
!  s = 100um
!  t = 35um
!  w = 0.15mm
!  x_sub = 3mm
!  z_sub = 200um
!  length = 1 m
# GHZ S MA R 50.000000
! Terminal data exported
! Port[1] = signal1_A
! Port[2] = signal2_A
! Port[3] = signal1_B
! Port[4] = signal2_B
1                0.0168837684877339 170.778403862741 0.137128973087009 -6.56013635239441 0.429066943897972 65.865246887253  0.0522127078282487 108.972094793417 
                0.137128973087009 -6.56013635239441 0.0168834356193771 170.7791684888   0.0522127078282466 108.972094793416 0.429061166782179 65.8638245438755 
                0.429066943897972 65.865246887253  0.0522127078282487 108.972094793417 0.0168837684877339 170.778403862741 0.137128973087009 -6.56013635239441 
                0.0522127078282466 108.972094793416 0.429061166782179 65.8638245438755 0.137128973087009 -6.56013635239441 0.0168834356193771 170.7791684888   
1.45             0.0165739149854956 174.820458498123 0.126778223586958 -5.04238209331969 0.32683898446716 55.4664651709622 0.0476833627267426 98.8505081846111 
                0.126778223586958 -5.04238209331969 0.0165737673348293 174.822212616573 0.0476833627267427 98.8505081846125 0.326825510847793 55.4646466217559 
                0.32683898446716 55.4664651709622 0.0476833627267426 98.8505081846111 0.0165739149854956 174.820458498123 0.126778223586958 -5.04238209331969 
                0.0476833627267427 98.8505081846125 0.326825510847793 55.4646466217559 0.126778223586958 -5.04238209331969 0.0165737673348293 174.822212616573 
1.9              0.0170333520542278 176.10388314072  0.122853154633833 -3.17329724515738 0.251865270914372 47.986482775295  0.0419784709999713 91.458070152807  
                0.122853154633833 -3.17329724515737 0.0170334425522051 176.105852702546 0.0419784709999715 91.4580701528097 0.251845855747816 47.9851782404868 
                0.251865270914372 47.986482775295  0.0419784709999713 91.458070152807  0.0170333520542278 176.10388314072  0.122853154633833 -3.17329724515738 
                0.0419784709999715 91.4580701528097 0.251845855747816 47.9851782404868 0.122853154633833 -3.17329724515737 0.0170334425522051 176.105852702546 
2.35             0.01742887667813 175.700926130839 0.121667182912664 -1.82976861690248 0.195641052723962 42.6609261835422 0.0362170328712559 86.1443041195577 
                0.121667182912664 -1.82976861690248 0.0174291502662675 175.702918853905 0.0362170328712574 86.1443041195584 0.195617816346712 42.6612497642352 
                0.195641052723962 42.6609261835422 0.0362170328712559 86.1443041195577 0.01742887667813 175.700926130839 0.121667182912664 -1.82976861690248 
                0.0362170328712574 86.1443041195584 0.195617816346712 42.6612497642352 0.121667182912664 -1.82976861690248 0.0174291502662675 175.702918853905 
2.8              0.0176286693044782 174.729673509453 0.121484678363995 -0.999777315501213 0.152876748745471 39.0388699465478 0.0308625323707372 82.5022030980355 
                0.121484678363995 -0.999777315501209 0.0176291022936293 174.73176873112  0.0308625323707379 82.5022030980374 0.152851622888361 39.0421304429979 
                0.152876748745471 39.0388699465478 0.0308625323707372 82.5022030980355 0.0176286693044782 174.729673509453 0.121484678363995 -0.999777315501213 
                0.0308625323707379 82.5022030980374 0.152851622888361 39.0421304429979 0.121484678363995 -0.999777315501209 0.0176291022936293 174.73176873112  
3.25             0.0176755559695886 173.689810946982 0.121606198469852 -0.512982051198521 0.120026179046685 36.8252211843697 0.0260877211866555 80.2534013960582 
                0.121606198469852 -0.51298205119852 0.017676160628577 173.692123245267 0.0260877211866559 80.2534013960577 0.120000807535934 36.8328815429574 
                0.120026179046685 36.8252211843697 0.0260877211866555 80.2534013960582 0.0176755559695886 173.689810946982 0.121606198469852 -0.512982051198521 
                0.0260877211866559 80.2534013960577 0.120000807535934 36.8328815429574 0.121606198469852 -0.51298205119852 0.017676160628577 173.692123245267 
3.7              0.0176283820653857 172.753747493115 0.121780385743072 -0.230984358658122 0.0946042778308006 35.8123671203443 0.0219297171201855 79.1968425678235 
                0.121780385743072 -0.230984358658123 0.0176291883916365 172.756354665072 0.0219297171201851 79.1968425678219 0.0945799503531885 35.8259855989223 
                0.0946042778308006 35.8123671203443 0.0219297171201855 79.1968425678235 0.0176283820653857 172.753747493115 0.121780385743072 -0.230984358658122 
                0.0219297171201851 79.1968425678219 0.0945799503531885 35.8259855989223 0.121780385743072 -0.230984358658123 0.0176291883916365 172.756354665072 
4.15             0.0175297757543601 171.959516578093 0.121930433663104 -0.0667586438567281 0.074817444031923 35.8461669671596 0.0183624540434898 79.1811530579062 
                0.121930433663104 -0.0667586438567271 0.0175308172163079 171.962450407122 0.0183624540434885 79.1811530579094 0.0747950729295958 35.867342646343  
                0.074817444031923 35.8461669671596 0.0183624540434898 79.1811530579062 0.0175297757543601 171.959516578093 0.121930433663104 -0.0667586438567281 
                0.0183624540434885 79.1811530579094 0.0747950729295958 35.867342646343  0.121930433663104 -0.0667586438567271 0.0175308172163079 171.962450407122 
4.6              0.017405789877321 171.297226201799 0.122041786893192 0.0300410240430915 0.0593441433320352 36.807413804853  0.0153323363967041 80.0884419620287 
                0.122041786893192 0.0300410240430914 0.0174070958162721 171.300482491249 0.0153323363967027 80.0884419620297 0.0593242893084985 36.8377428485847 
                0.0593441433320352 36.807413804853  0.0153323363967041 80.0884419620287 0.017405789877321 171.297226201799 0.122041786893192 0.0300410240430915 
                0.0153323363967027 80.0884419620297 0.0593242893084985 36.8377428485847 0.122041786893192 0.0300410240430914 0.0174070958162721 171.300482491249 
5.05             0.0172710987099615 170.743966197903 0.122119179027009 0.0877536353166138 0.047196043506383 38.6009925939437 0.0127762614396567 81.8243126424796 
                0.122119179027009 0.0877536353166151 0.017272691527332 170.74751779264  0.0127762614396585 81.8243126424817 0.0471789724408485 38.6420353922287 
                0.047196043506383 38.6009925939437 0.0127762614396567 81.8243126424796 0.0172710987099615 170.743966197903 0.122119179027009 0.0877536353166138 
                0.0127762614396585 81.8243126424817 0.0471789724408485 38.6420353922287 0.122119179027009 0.0877536353166151 0.017272691527332 170.74751779264  
5.5              0.0171335346858883 170.276639694687 0.122171328084001 0.122308111159572 0.0376257651659327 41.1491541025441 0.0106307337161553 84.3114573117981 
                0.122171328084001 0.122308111159572 0.0171354296347209 170.280447004714 0.0106307337161551 84.311457311799  0.0376115163637023 41.2024111671174 
                0.0376257651659327 41.1491541025441 0.0106307337161553 84.3114573117981 0.0171335346858883 170.276639694687 0.122171328084001 0.122308111159572 
                0.0106307337161551 84.311457311799  0.0376115163637023 41.2024111671174 0.122171328084001 0.122308111159572 0.0171354296347209 170.280447004714 
5.95             0.0169970850569383 169.875850285663 0.122206119067684 0.142782825930613 0.0300633047644766 44.3871225566325 0.00883630357187415 87.4853940884326 
                0.122206119067684 0.142782825930613 0.0169992911640806 169.879868325929 0.00883630357187486 87.4853940884322 0.0300517572712636 44.4540177232149 
                0.0300633047644766 44.3871225566325 0.00883630357187415 87.4853940884326 0.0169970850569383 169.875850285663 0.122206119067684 0.142782825930613 
                0.00883630357187486 87.4853940884322 0.0300517572712636 44.4540177232149 0.122206119067684 0.142782825930613 0.0169992911640806 169.879868325929 
6.4              0.0168636692566814 169.526424131464 0.12222952851499 0.154478440427222 0.0240709854493135 48.2600963875292 0.00733949596456969 91.2915256213892 
                0.12222952851499 0.154478440427221 0.0168661905517971 169.530606707031 0.00733949596456862 91.2915256213891 0.0240619153939039 48.3419655068462 
                0.0240709854493135 48.2600963875292 0.00733949596456969 91.2915256213892 0.0168636692566814 169.526424131464 0.12222952851499 0.154478440427222 
                0.00733949596456862 91.2915256213891 0.0240619153939039 48.3419655068462 0.12222952851499 0.154478440427221 0.0168661905517971 169.530606707031 
6.85             0.0167341336603742 169.216846177007 0.122245744071513 0.160587117287383 0.0193108636528929 52.7211206281957 0.00609338877397155 95.6830411040438 
                0.122245744071513 0.160587117287384 0.016736970349095 169.22114816411  0.00609338877397222 95.6830411040458 0.0193039900391653 52.819204729148  
                0.0193108636528929 52.7211206281957 0.00609338877397155 95.6830411040438 0.0167341336603742 169.216846177007 0.122245744071513 0.160587117287383 
                0.00609338877397222 95.6830411040458 0.0193039900391653 52.819204729148  0.122245744071513 0.160587117287384 0.016736970349095 169.22114816411  
7.3              0.0166087869548254 168.938482307057 0.122257568240357 0.163097557138546 0.0155207728780669 57.7295286049372 0.00505748073302067 100.619374943672 
                0.122257568240357 0.163097557138546 0.0166119363999623 168.942860810683 0.0050574807330207 100.619374943666 0.0155157918512122 57.8449702461127 
                0.0155207728780669 57.7295286049372 0.00505748073302067 100.619374943672 0.0166087869548254 168.938482307057 0.122257568240357 0.163097557138546 
                0.0050574807330207 100.619374943666 0.0155157918512122 57.8449702461127 0.122257568240357 0.163097557138546 0.0166119363999623 168.942860810683 
7.75             0.0164876788735271 168.684879598729 0.122266812140043 0.163289846806049 0.0124965013208119 63.2497709813683 0.00419720862127526 106.065047504302 
                0.122266812140043 0.163289846806049 0.0164911363749021 168.689294513995 0.00419720862127545 106.0650475043   0.0124931102615582 63.3836133173123 
                0.0124965013208119 63.2497709813683 0.00419720862127526 106.065047504302 0.0164876788735271 168.684879598729 0.122266812140043 0.163289846806049 
                0.00419720862127545 106.0650475043   0.0124931102615582 63.3836133173123 0.122266812140043 0.163289846806049 0.0164911363749021 168.689294513995 
8.2              0.0163707402534731 168.451212408691 0.122274606070973 0.162010722128366 0.0100784058804965 69.250516352935  0.00348331598966026 111.988774210446 
                0.122274606070973 0.162010722128366 0.0163744996442301 168.455626685858 0.00348331598966033 111.988774210446 0.0100763191741012 69.4037041761871 
                0.0100784058804965 69.250516352935  0.00348331598966026 111.988774210446 0.0163707402534731 168.451212408691 0.122274606070973 0.162010722128366 
                0.00348331598966033 111.988774210446 0.0100763191741012 69.4037041761871 0.122274606070973 0.162010722128366 0.0163744996442301 168.455626685858 
8.65             0.0162578503070831 168.233865007724 0.122281625554751 0.159830743829932 0.00814128043038816 75.7039489686904 0.00289118563134803 118.362770162048 
                0.122281625554751 0.159830743829932 0.0162619043961734 168.238244772549 0.00289118563134785 118.36277016205  0.0081402388002861 75.8773310361869 
                0.00814128043038816 75.7039489686904 0.00289118563134803 118.362770162048 0.0162578503070831 168.233865007724 0.122281625554751 0.159830743829932 
                0.00289118563134785 118.36277016205  0.0081402388002861 75.8773310361869 0.122281625554751 0.159830743829932 0.0162619043961734 168.238244772549 
9.1              0.0161488669197024 168.030122012496 0.122288249903935 0.157137303894257 0.00658663787892853 82.5852115935969 0.00240019562506885 125.162198494286 
                0.122288249903935 0.157137303894257 0.0161532078093327 168.034436606046 0.00240019562506874 125.162198494285 0.00658641298560531 82.7795437296435 
                0.00658663787892853 82.5852115935969 0.00240019562506885 125.162198494286 0.0161488669197024 168.030122012496 0.122288249903935 0.157137303894257 
                0.00240019562506874 125.162198494285 0.00658641298560531 82.7795437296435 0.122288249903935 0.157137303894257 0.0161532078093327 168.034436606046 
9.55             0.0160436390609207 167.837938594219 0.122294671294442 0.154192168714955 0.0053367987087406 89.8719582643734 0.00199312845862502 132.364728375025 
                0.122294671294442 0.154192168714955 0.0160482583895913 167.842160571441 0.00199312845862522 132.364728375028 0.0053371944376117 90.0879079495411 
                0.0053367987087406 89.8719582643734 0.00199312845862502 132.364728375025 0.0160436390609207 167.837938594219 0.122294671294442 0.154192168714955 
                0.00199312845862522 132.364728375028 0.0053371944376117 90.0879079495411 0.122294671294442 0.154192168714955 0.0160482583895913 167.842160571441 
10               0.015942011237762 167.65576855506  0.12230096871903 0.151168915740022 0.00433034156069401 97.54399170955   0.00165564522785876 139.950175759386 
                0.12230096871903 0.151168915740022 0.0159469003331139 167.659873617395 0.00165564522785852 139.950175759382 0.00433119310545468 97.7821421986092 
                0.00433034156069401 97.54399170955   0.00165564522785876 139.950175759386 0.015942011237762 167.65576855506  0.12230096871903 0.151168915740022 
                0.00165564522785852 139.950175759382 0.00433119310545468 97.7821421986092 0.12230096871903 0.151168915740022 0.0159469003331139 167.659873617395 
